!File created by NanoVNA-F
# HZ S RI R 50
  18000000  0.120230  0.012858
  18002000  0.119237  0.014052
  18004000  0.118196  0.015262
  18006000  0.117196  0.016457
  18008000  0.116166  0.017669
  18010000  0.115192  0.018897
  18012000  0.114199  0.020060
  18014000  0.113194  0.021330
  18016000  0.112192  0.022537
  18018000  0.111211  0.023766
  18020000  0.110197  0.025047
  18022000  0.109211  0.026298
  18024000  0.108220  0.027545
  18026000  0.107217  0.028847
  18028000  0.106254  0.030153
  18030000  0.105256  0.031430
  18032000  0.104258  0.032743
  18034000  0.103253  0.034036
  18036000  0.102272  0.035349
  18038000  0.101279  0.036626
  18040000  0.100332  0.037938
  18042000  0.099311  0.039245
  18044000  0.098361  0.040533
  18046000  0.097444  0.041837
  18048000  0.096512  0.043159
  18050000  0.095525  0.044442
  18052000  0.094598  0.045724
  18054000  0.093656  0.047046
  18056000  0.092714  0.048296
  18058000  0.091771  0.049597
  18060000  0.090860  0.050867
  18062000  0.089910  0.052137
  18064000  0.089031  0.053427
  18066000  0.088088  0.054699
  18068000  0.087177  0.055975
  18070000  0.086311  0.057235
  18072000  0.085391  0.058542
  18074000  0.084509  0.059801
  18076000  0.083639  0.061095
  18078000  0.082736  0.062358
  18080000  0.081835  0.063700
  18082000  0.080958  0.064991
  18084000  0.080069  0.066330
  18086000  0.079198  0.067656
  18088000  0.078340  0.068959
  18090000  0.077476  0.070323
  18092000  0.076606  0.071658
  18094000  0.075758  0.072949
  18096000  0.074909  0.074331
  18098000  0.074088  0.075693
  18100000  0.073221  0.077058
  18102000  0.072422  0.078384
  18104000  0.071599  0.079824
  18106000  0.070795  0.081177
  18108000  0.070045  0.082593
  18110000  0.069240  0.084009
  18112000  0.068474  0.085359
  18114000  0.067697  0.086756
  18116000  0.066995  0.088158
  18118000  0.066216  0.089533
  18120000  0.065482  0.090920
  18122000  0.064742  0.092328
  18124000  0.064015  0.093745
  18126000  0.063321  0.095192
  18128000  0.062685  0.096689
  18130000  0.062046  0.098177
  18132000  0.061447  0.099743
  18134000  0.060808  0.101251
  18136000  0.060131  0.102770
  18138000  0.059668  0.104575
  18140000  0.062169  0.103511
  18142000  0.061492  0.104917
  18144000  0.060842  0.106261
  18146000  0.060231  0.107668
  18148000  0.059588  0.109052
  18150000  0.058952  0.110414
  18152000  0.058338  0.111797
  18154000  0.057687  0.113159
  18156000  0.057060  0.114583
  18158000  0.056436  0.115923
  18160000  0.055783  0.117318
  18162000  0.055170  0.118719
  18164000  0.054561  0.120101
  18166000  0.053933  0.121538
  18168000  0.053303  0.122954
  18170000  0.052675  0.124436
  18172000  0.052196  0.125853
  18174000  0.051462  0.127309
  18176000  0.050860  0.128755
  18178000  0.050228  0.130214
  18180000  0.049659  0.131551
  18182000  0.049096  0.133023
  18184000  0.048513  0.134481
  18186000  0.047973  0.135958
  18188000  0.047410  0.137392
  18190000  0.046848  0.138838
  18192000  0.046348  0.140323
  18194000  0.045795  0.141759
  18196000  0.045306  0.143255
  18198000  0.044776  0.144696
  18200000  0.044349  0.146209
