!File created by NanoVNA-F
# HZ S RI R 50
  18000000 -0.733250  0.487312
  18002000 -0.733426  0.487797
  18004000 -0.733280  0.487906
  18006000 -0.733177  0.488076
  18008000 -0.733161  0.488267
  18010000 -0.733052  0.488496
  18012000 -0.732934  0.488631
  18014000 -0.732847  0.488833
  18016000 -0.732652  0.488929
  18018000 -0.732662  0.489022
  18020000 -0.732533  0.489193
  18022000 -0.732424  0.489415
  18024000 -0.732314  0.489563
  18026000 -0.732200  0.489751
  18028000 -0.732130  0.489949
  18030000 -0.732033  0.490196
  18032000 -0.731942  0.490377
  18034000 -0.731865  0.490594
  18036000 -0.731723  0.490759
  18038000 -0.731593  0.490952
  18040000 -0.731516  0.491175
  18042000 -0.731445  0.491293
  18044000 -0.731329  0.491520
  18046000 -0.731247  0.491754
  18048000 -0.731146  0.491938
  18050000 -0.731091  0.492176
  18052000 -0.730964  0.492400
  18054000 -0.730861  0.492582
  18056000 -0.730736  0.492780
  18058000 -0.730616  0.492809
  18060000 -0.730524  0.492878
  18062000 -0.730413  0.493001
  18064000 -0.730364  0.493148
  18066000 -0.730252  0.493374
  18068000 -0.730227  0.493605
  18070000 -0.730114  0.493795
  18072000 -0.729955  0.493975
  18074000 -0.729898  0.494150
  18076000 -0.729781  0.494226
  18078000 -0.729675  0.494285
  18080000 -0.729592  0.494462
  18082000 -0.729495  0.494615
  18084000 -0.729422  0.494800
  18086000 -0.729298  0.495025
  18088000 -0.729226  0.495256
  18090000 -0.729097  0.493037
  18092000 -0.728997  0.493328
  18094000 -0.728928  0.493506
  18096000 -0.728835  0.493743
  18098000 -0.728720  0.493922
  18100000 -0.728597  0.494105
  18102000 -0.728491  0.494314
  18104000 -0.728449  0.494431
  18106000 -0.728270  0.494545
  18108000 -0.728315  0.494877
  18110000 -0.728188  0.495085
  18112000 -0.728022  0.495288
  18114000 -0.728001  0.495530
  18116000 -0.727789  0.495672
  18118000 -0.727695  0.495842
  18120000 -0.727661  0.496079
  18122000 -0.727523  0.496204
  18124000 -0.727433  0.496432
  18126000 -0.727288  0.496624
  18128000 -0.727221  0.496842
  18130000 -0.727086  0.497059
  18132000 -0.726929  0.497222
  18134000 -0.726811  0.497355
  18136000 -0.726818  0.497584
  18138000 -0.726627  0.497701
  18140000 -0.726513  0.497855
  18142000 -0.726407  0.498022
  18144000 -0.726306  0.498225
  18146000 -0.726267  0.498441
  18148000 -0.726178  0.498596
  18150000 -0.726032  0.498765
  18152000 -0.725957  0.499006
  18154000 -0.725838  0.499186
  18156000 -0.725761  0.499382
  18158000 -0.725635  0.499620
  18160000 -0.725571  0.499785
  18162000 -0.725536  0.499935
  18164000 -0.725407  0.500134
  18166000 -0.725363  0.500340
  18168000 -0.725246  0.500441
  18170000 -0.725085  0.500691
  18172000 -0.725024  0.500736
  18174000 -0.724893  0.500934
  18176000 -0.724783  0.501226
  18178000 -0.724737  0.501273
  18180000 -0.724643  0.501489
  18182000 -0.724433  0.501496
  18184000 -0.724414  0.501701
  18186000 -0.724178  0.501828
  18188000 -0.724143  0.502102
  18190000 -0.723999  0.502263
  18192000 -0.723901  0.502531
  18194000 -0.723882  0.502742
  18196000 -0.723674  0.502938
  18198000 -0.723542  0.503009
  18200000 -0.723510  0.503219
