!File created by NanoVNA-F
# HZ S RI R 50
  18000000  0.129707 -0.027223
  18002000  0.128438 -0.026021
  18004000  0.127112 -0.024700
  18006000  0.125799 -0.023369
  18008000  0.124446 -0.021983
  18010000  0.123148 -0.020648
  18012000  0.122546 -0.020019
  18014000  0.121579 -0.019050
  18016000  0.120700 -0.018062
  18018000  0.119776 -0.017074
  18020000  0.118907 -0.016067
  18022000  0.118026 -0.015085
  18024000  0.117136 -0.014064
  18026000  0.116205 -0.013067
  18028000  0.115299 -0.012073
  18030000  0.114358 -0.011017
  18032000  0.113389 -0.009980
  18034000  0.112443 -0.008890
  18036000  0.111464 -0.007816
  18038000  0.110552 -0.006737
  18040000  0.109598 -0.005675
  18042000  0.108673 -0.004575
  18044000  0.107798 -0.003518
  18046000  0.106885 -0.002385
  18048000  0.105983 -0.001263
  18050000  0.105045 -0.000117
  18052000  0.104098  0.001053
  18054000  0.103163  0.002165
  18056000  0.102205  0.003336
  18058000  0.101204  0.004505
  18060000  0.100217  0.005701
  18062000  0.099192  0.006895
  18064000  0.098269  0.008104
  18066000  0.097245  0.009302
  18068000  0.096202  0.010594
  18070000  0.095229  0.011842
  18072000  0.094194  0.013103
  18074000  0.093152  0.014432
  18076000  0.092209  0.015716
  18078000  0.091184  0.016974
  18080000  0.090168  0.018340
  18082000  0.089197  0.019657
  18084000  0.088177  0.020995
  18086000  0.087174  0.022322
  18088000  0.086170  0.023686
  18090000  0.085166  0.025028
  18092000  0.084122  0.026422
  18094000  0.083139  0.027802
  18096000  0.082060  0.029230
  18098000  0.080998  0.030646
  18100000  0.079970  0.032073
  18102000  0.078911  0.033441
  18104000  0.077819  0.034958
  18106000  0.076768  0.036405
  18108000  0.075743  0.037865
  18110000  0.074683  0.039341
  18112000  0.073627  0.040795
  18114000  0.072566  0.042282
  18116000  0.071539  0.043751
  18118000  0.070498  0.045242
  18120000  0.069482  0.046723
  18122000  0.068466  0.048187
  18124000  0.067453  0.049714
  18126000  0.066472  0.051176
  18128000  0.065465  0.052678
  18130000  0.064532  0.054174
  18132000  0.063593  0.055635
  18134000  0.062580  0.057141
  18136000  0.061598  0.058658
  18138000  0.060632  0.060174
  18140000  0.059665  0.061692
  18142000  0.058665  0.063248
  18144000  0.057714  0.064759
  18146000  0.056728  0.066332
  18148000  0.055768  0.067903
  18150000  0.054846  0.069454
  18152000  0.053898  0.071013
  18154000  0.053024  0.072545
  18156000  0.052113  0.074101
  18158000  0.051280  0.075661
  18160000  0.050354  0.077206
  18162000  0.049508  0.078783
  18164000  0.048712  0.080309
  18166000  0.047884  0.081878
  18168000  0.047035  0.083402
  18170000  0.046254  0.085008
  18172000  0.045456  0.086555
  18174000  0.044606  0.088098
  18176000  0.043868  0.089699
  18178000  0.043075  0.091265
  18180000  0.042336  0.092887
  18182000  0.041591  0.094442
  18184000  0.040853  0.096018
  18186000  0.040140  0.097653
  18188000  0.039460  0.099232
  18190000  0.038744  0.100798
  18192000  0.038061  0.102439
  18194000  0.037389  0.104001
  18196000  0.036690  0.105579
  18198000  0.035985  0.107187
  18200000  0.035383  0.108809
