!File created by NanoVNA-F
# HZ S RI R 50
  18067999  0.051229 -0.026621
  18068999  0.050573 -0.025593
  18069999  0.049965 -0.024576
  18070999  0.049241 -0.023531
  18071999  0.048471 -0.022447
  18072999  0.047759 -0.021425
  18073999  0.047057 -0.020387
  18074999  0.046428 -0.019319
  18075999  0.045858 -0.018324
  18076999  0.045288 -0.017264
  18077999  0.044729 -0.016203
  18078999  0.044221 -0.015150
  18079999  0.043696 -0.014147
  18080999  0.043226 -0.013126
  18081999  0.042738 -0.012170
  18082999  0.042235 -0.011197
  18083999  0.041671 -0.010225
  18084999  0.041126 -0.009220
  18085999  0.040507 -0.008245
  18086999  0.039952 -0.007257
  18087999  0.039494 -0.006245
  18088999  0.039039 -0.005275
  18089999  0.038490 -0.004267
  18090999  0.038046 -0.003243
  18091999  0.037562 -0.002252
  18092999  0.036997 -0.001259
  18093999  0.036507 -0.000241
  18094999  0.036029  0.000758
  18095999  0.035445  0.001740
  18096999  0.034914  0.002758
  18097999  0.034295  0.003779
  18098999  0.033648  0.004828
  18099999  0.033075  0.005915
  18100999  0.032534  0.006971
  18101999  0.031982  0.008040
  18102999  0.031481  0.009118
  18103999  0.031035  0.010175
  18104999  0.030536  0.011195
  18105999  0.030104  0.012213
  18106999  0.029667  0.013249
  18107999  0.029120  0.014245
  18108999  0.028601  0.015273
  18109999  0.028086  0.016288
  18110999  0.027603  0.017331
  18111999  0.027014  0.018344
  18112999  0.026529  0.019416
  18113999  0.026034  0.020499
  18114999  0.025490  0.021597
  18115999  0.025032  0.022717
  18116999  0.024642  0.023798
  18117999  0.024246  0.024847
  18118999  0.023963  0.025874
  18119999  0.023677  0.026895
  18120999  0.023292  0.027938
  18121999  0.022940  0.028996
  18122999  0.022499  0.030067
  18123999  0.022025  0.031107
  18124999  0.021627  0.032177
  18125999  0.021200  0.033218
  18126999  0.020720  0.034293
  18127999  0.020282  0.035364
  18128999  0.019873  0.036446
  18129999  0.019445  0.037506
  18130999  0.019023  0.038557
  18131999  0.018695  0.039644
  18132999  0.018341  0.040680
  18133999  0.018076  0.041754
  18134999  0.017843  0.042765
  18135999  0.017562  0.043829
  18136999  0.017028  0.044989
  18137999  0.016507  0.046257
  18138999  0.015973  0.047473
  18139999  0.015422  0.048664
  18140999  0.014987  0.049852
  18141999  0.016448  0.037359
  18142999  0.015929  0.038871
  18143999  0.015429  0.040262
  18144999  0.014929  0.041672
  18145999  0.014488  0.042976
  18146999  0.013998  0.044257
  18147999  0.013530  0.045501
  18148999  0.013073  0.046678
  18149999  0.012556  0.047872
  18150999  0.012095  0.049124
  18151999  0.011647  0.050335
  18152999  0.011097  0.051627
  18153999  0.010596  0.052948
  18154999  0.010111  0.054134
  18155999  0.009703  0.055327
  18156999  0.009359  0.056535
  18157999  0.008979  0.057738
  18158999  0.008503  0.058961
  18159999  0.008051  0.060130
  18160999  0.007674  0.061310
  18161999  0.007282  0.062564
  18162999  0.006861  0.063835
  18163999  0.006506  0.065181
  18164999  0.006016  0.066490
  18165999  0.005568  0.067747
  18166999  0.005205  0.068923
  18168000  0.004881  0.070134
