# HZ S RI R 50
18068000 0.8119246166666666 0.33303006500000004
18069000 0.811360697 0.33293786666666664
18070000 0.8114776410000001 0.333059102
18071000 0.8115327359999999 0.33318824566666666
18072000 0.8115697699999999 0.3331219953333333
18073000 0.811587254 0.3331120906666667
18074000 0.8114415006666666 0.33302017066666667
18075000 0.8115944266666668 0.332970043
18076000 0.811791559 0.333173702
18077000 0.811635554 0.3328996103333333
18078000 0.8117785453333334 0.33280908066666665
18079000 0.811737756 0.33270950099999996
18080000 0.8118241033333332 0.3326447006666667
18081000 0.811723431 0.33241265033333334
18082000 0.8118277590000001 0.332307756
18083000 0.8120473626666667 0.33219785500000004
18084000 0.8117768166666667 0.33195528366666666
18085000 0.8122097453333333 0.3319641553333333
18086000 0.8122065466666667 0.3317661883333333
18087000 0.8120670913333333 0.33157676433333333
18088000 0.8122098246666667 0.33145016433333335
18089000 0.8124615353333334 0.33140087133333335
18090000 0.8120626806666666 0.3313178616666667
18091000 0.812259992 0.33122735233333334
18092000 0.8121161263333333 0.33102607700000003
18093000 0.8122936883333334 0.3308913706666667
18094000 0.812492291 0.3308258653333333
18095000 0.8123679756666666 0.3306008876666667
18096000 0.8124853173333334 0.3304424583333333
18097000 0.8126427926666667 0.33031291766666665
18098000 0.8126079836666666 0.33011322233333334
18099000 0.8126571976666668 0.32996301866666666
18100000 0.8127361536666666 0.329783688
18101000 0.8128103809999999 0.32960245
18102000 0.812950432 0.32943974933333336
18103000 0.8129224380000001 0.32922956366666667
18104000 0.8128592966666667 0.329034368
18105000 0.8130429980000001 0.328879247
18106000 0.8130663833333335 0.3287186226666667
18107000 0.8132228850000001 0.32853939133333326
18108000 0.8132854103333332 0.32836416366666665
18109000 0.8132648269999999 0.32814046733333335
18110000 0.8134636683333333 0.3280109766666666
18111000 0.8135495580000001 0.3278214933333334
18112000 0.8135450086666666 0.32761794333333333
18113000 0.8136408133333332 0.3274186453333333
18114000 0.8137025633333334 0.32717139533333334
18115000 0.8136443496666667 0.3270239533333334
18116000 0.8139814136666668 0.326903383
18117000 0.8140656153333333 0.326706876
18118000 0.8139636713333332 0.3264924983333333
18119000 0.8141169549999999 0.326342672
18120000 0.8142042953333334 0.32611694933333335
18121000 0.813977639 0.3258626363333334
18122000 0.8144070503333333 0.3257546823333333
18123000 0.8145625989999999 0.3255894283333333
18124000 0.8143301606666666 0.32534942
18125000 0.8144190513333333 0.3251245716666667
18126000 0.8144298393333335 0.32495170833333337
18127000 0.8146931533333334 0.3247519933333334
18128000 0.8148522973333333 0.32463063799999997
18129000 0.8149144646666667 0.3243941563333333
18130000 0.8149837059999999 0.3242228626666666
18131000 0.81486994 0.323960225
18132000 0.8150966566666668 0.32379890466666666
18133000 0.8152629536666667 0.32362151133333333
18134000 0.8153620556666666 0.3234303396666667
18135000 0.8153731226666666 0.3232251006666667
18136000 0.8153895736666666 0.322984298
18137000 0.8155712086666668 0.32282785566666666
18138000 0.8157404659999999 0.322618594
18139000 0.8156754773333333 0.32242615999999996
18140000 0.815879643 0.32221885499999997
18141000 0.8157720366666666 0.32200259966666667
18142000 0.8160083886666668 0.3217867513333333
18143000 0.8161094186666666 0.32160523533333335
18144000 0.8161462146666666 0.32139921200000005
18145000 0.8164438406666666 0.32123152400000005
18146000 0.8162604173333333 0.32096405833333336
18147000 0.816454013 0.32078962533333333
18148000 0.8163418966666667 0.3205329476666667
18149000 0.8166860539999999 0.32039539
18150000 0.8165893753333333 0.3201613426666667
18151000 0.8169511556666667 0.31998671100000003
18152000 0.8170020780000001 0.31978596233333334
18153000 0.8169620833333333 0.31952765566666663
18154000 0.8169175583333335 0.3193410136666667
18155000 0.8171282410000001 0.31910928066666666
18156000 0.817421158 0.318981896
18157000 0.8172356089999999 0.318710367
18158000 0.8173021873333334 0.3185079493333334
18159000 0.8175933956666667 0.31835067266666667
18160000 0.8175824286666667 0.318117877
18161000 0.8177109163333333 0.3179170093333334
18162000 0.8177563943333332 0.31768767033333334
18163000 0.8179271816666667 0.31752528733333335
18164000 0.8180788756666667 0.3173070053333333
18165000 0.8180360000000001 0.31709034233333333
18166000 0.8181234599999999 0.3168683153333334
18167000 0.8181868793333334 0.3166693646666667
18168000 0.8182788293333334 0.31644698
