!File created by NanoVNA-F
# HZ S RI R 50
  18067999  0.074877 -0.024609
  18068999  0.074309 -0.023723
  18069999  0.073436 -0.022746
  18070999  0.072052 -0.021656
  18071999  0.070846 -0.020609
  18072999  0.071941 -0.022996
  18073999  0.070895 -0.022144
  18074999  0.069836 -0.021235
  18075999  0.068708 -0.020342
  18076999  0.067570 -0.019451
  18077999  0.066379 -0.018615
  18078999  0.065239 -0.017753
  18079999  0.064423 -0.016988
  18080999  0.063722 -0.016177
  18081999  0.063204 -0.015321
  18082999  0.062833 -0.014486
  18083999  0.062321 -0.013701
  18084999  0.061718 -0.012903
  18085999  0.061215 -0.011971
  18086999  0.060763 -0.011053
  18087999  0.060306 -0.010133
  18088999  0.059901 -0.009224
  18089999  0.059414 -0.008311
  18090999  0.058801 -0.007439
  18091999  0.058235 -0.006587
  18092999  0.057714 -0.005821
  18093999  0.057213 -0.005035
  18094999  0.056747 -0.004284
  18095999  0.056100 -0.003522
  18096999  0.055261 -0.002719
  18097999  0.054406 -0.001922
  18098999  0.053675 -0.000991
  18099999  0.053005 -0.000086
  18100999  0.052303  0.000837
  18101999  0.051580  0.001746
  18102999  0.050716  0.002480
  18103999  0.049678  0.002976
  18104999  0.048631  0.003400
  18105999  0.047584  0.003886
  18106999  0.046457  0.004396
  18107999  0.045414  0.005161
  18108999  0.044622  0.005991
  18109999  0.043970  0.006882
  18110999  0.043374  0.007956
  18111999  0.042889  0.009168
  18112999  0.042715  0.010312
  18113999  0.042774  0.011350
  18114999  0.042942  0.012281
  18115999  0.042908  0.013214
  18116999  0.042660  0.014172
  18117999  0.042403  0.015092
  18118999  0.042120  0.016047
  18119999  0.041816  0.017057
  18120999  0.041413  0.018078
  18121999  0.041115  0.019174
  18122999  0.040918  0.020185
  18123999  0.040706  0.021178
  18124999  0.040353  0.022194
  18125999  0.039871  0.023196
  18126999  0.039447  0.024222
  18127999  0.038976  0.025221
  18128999  0.038523  0.026240
  18129999  0.038161  0.027249
  18130999  0.037762  0.028262
  18131999  0.037383  0.029321
  18132999  0.037176  0.030324
  18133999  0.036990  0.031313
  18134999  0.036707  0.032285
  18135999  0.036441  0.033297
  18136999  0.036082  0.034330
  18137999  0.035647  0.035390
  18138999  0.035203  0.036502
  18139999  0.034800  0.037584
  18140999  0.034342  0.038697
  18141999  0.033987  0.039774
  18142999  0.033658  0.040807
  18143999  0.033292  0.041902
  18144999  0.032958  0.042976
  18145999  0.032622  0.044047
  18146999  0.032260  0.045142
  18147999  0.031899  0.046166
  18148999  0.031755  0.047129
  18149999  0.031552  0.048046
  18150999  0.031347  0.049046
  18151999  0.030964  0.050098
  18152999  0.030606  0.051162
  18153999  0.030248  0.052202
  18154999  0.029925  0.053203
  18155999  0.029688  0.054212
  18156999  0.029418  0.055188
  18157999  0.029140  0.056228
  18158999  0.028786  0.057304
  18159999  0.028350  0.058385
  18160999  0.027952  0.059494
  18161999  0.027585  0.060519
  18162999  0.027236  0.061589
  18163999  0.026900  0.062600
  18164999  0.026641  0.063614
  18165999  0.026376  0.064606
  18166999  0.026221  0.065618
  18168000  0.026057  0.066568
